<Qucs Dataset 0.0.20>
<indep frequency 300>
  +8.00000000000000000000e+09
  +8.01337792642140483856e+09
  +8.02675585284280967712e+09
  +8.04013377926421451569e+09
  +8.05351170568561840057e+09
  +8.06688963210702323914e+09
  +8.08026755852842807770e+09
  +8.09364548494983291626e+09
  +8.10702341137123775482e+09
  +8.12040133779264259338e+09
  +8.13377926421404647827e+09
  +8.14715719063545131683e+09
  +8.16053511705685615540e+09
  +8.17391304347826099396e+09
  +8.18729096989966583252e+09
  +8.20066889632107067108e+09
  +8.21404682274247455597e+09
  +8.22742474916387939453e+09
  +8.24080267558528423309e+09
  +8.25418060200668907166e+09
  +8.26755852842809391022e+09
  +8.28093645484949874878e+09
  +8.29431438127090263367e+09
  +8.30769230769230747223e+09
  +8.32107023411371231079e+09
  +8.33444816053511714935e+09
  +8.34782608695652198792e+09
  +8.36120401337792682648e+09
  +8.37458193979933071136e+09
  +8.38795986622073554993e+09
  +8.40133779264214038849e+09
  +8.41471571906354522705e+09
  +8.42809364548495006561e+09
  +8.44147157190635490417e+09
  +8.45484949832775878906e+09
  +8.46822742474916362762e+09
  +8.48160535117056846619e+09
  +8.49498327759197330475e+09
  +8.50836120401337814331e+09
  +8.52173913043478298187e+09
  +8.53511705685618686676e+09
  +8.54849498327759170532e+09
  +8.56187290969899654388e+09
  +8.57525083612040138245e+09
  +8.58862876254180622101e+09
  +8.60200668896321105957e+09
  +8.61538461538461494446e+09
  +8.62876254180602073669e+09
  +8.64214046822742462158e+09
  +8.65551839464883041382e+09
  +8.66889632107023429871e+09
  +8.68227424749163818359e+09
  +8.69565217391304397583e+09
  +8.70903010033444786072e+09
  +8.72240802675585365295e+09
  +8.73578595317725753784e+09
  +8.74916387959866142273e+09
  +8.76254180602006721497e+09
  +8.77591973244147109985e+09
  +8.78929765886287689209e+09
  +8.80267558528428077698e+09
  +8.81605351170568466187e+09
  +8.82943143812709045410e+09
  +8.84280936454849433899e+09
  +8.85618729096990013123e+09
  +8.86956521739130401611e+09
  +8.88294314381270980835e+09
  +8.89632107023411369324e+09
  +8.90969899665551757812e+09
  +8.92307692307692337036e+09
  +8.93645484949832725525e+09
  +8.94983277591973304749e+09
  +8.96321070234113693237e+09
  +8.97658862876254272461e+09
  +8.98996655518394660950e+09
  +9.00334448160535049438e+09
  +9.01672240802675628662e+09
  +9.03010033444816017151e+09
  +9.04347826086956596375e+09
  +9.05685618729096984863e+09
  +9.07023411371237373352e+09
  +9.08361204013377952576e+09
  +9.09698996655518341064e+09
  +9.11036789297658920288e+09
  +9.12374581939799308777e+09
  +9.13712374581939697266e+09
  +9.15050167224080276489e+09
  +9.16387959866220664978e+09
  +9.17725752508361244202e+09
  +9.19063545150501632690e+09
  +9.20401337792642211914e+09
  +9.21739130434782600403e+09
  +9.23076923076922988892e+09
  +9.24414715719063568115e+09
  +9.25752508361203956604e+09
  +9.27090301003344535828e+09
  +9.28428093645484924316e+09
  +9.29765886287625503540e+09
  +9.31103678929765892029e+09
  +9.32441471571906280518e+09
  +9.33779264214046859741e+09
  +9.35117056856187248230e+09
  +9.36454849498327827454e+09
  +9.37792642140468215942e+09
  +9.39130434782608795166e+09
  +9.40468227424749183655e+09
  +9.41806020066889572144e+09
  +9.43143812709030151367e+09
  +9.44481605351170539856e+09
  +9.45819397993310928345e+09
  +9.47157190635451507568e+09
  +9.48494983277591896057e+09
  +9.49832775919732475281e+09
  +9.51170568561872863770e+09
  +9.52508361204013442993e+09
  +9.53846153846153831482e+09
  +9.55183946488294219971e+09
  +9.56521739130434799194e+09
  +9.57859531772575187683e+09
  +9.59197324414715766907e+09
  +9.60535117056856155396e+09
  +9.61872909698996734619e+09
  +9.63210702341137123108e+09
  +9.64548494983277511597e+09
  +9.65886287625418090820e+09
  +9.67224080267558479309e+09
  +9.68561872909699058533e+09
  +9.69899665551839447021e+09
  +9.71237458193980026245e+09
  +9.72575250836120414734e+09
  +9.73913043478260803223e+09
  +9.75250836120401382446e+09
  +9.76588628762541770935e+09
  +9.77926421404682350159e+09
  +9.79264214046822738647e+09
  +9.80602006688963127136e+09
  +9.81939799331103706360e+09
  +9.83277591973244094849e+09
  +9.84615384615384674072e+09
  +9.85953177257525062561e+09
  +9.87290969899665451050e+09
  +9.88628762541806030273e+09
  +9.89966555183946418762e+09
  +9.91304347826086997986e+09
  +9.92642140468227386475e+09
  +9.93979933110367965698e+09
  +9.95317725752508354187e+09
  +9.96655518394648742676e+09
  +9.97993311036789321899e+09
  +9.99331103678929710388e+09
  +1.00066889632107028961e+10
  +1.00200668896321067810e+10
  +1.00334448160535125732e+10
  +1.00468227424749164581e+10
  +1.00602006688963203430e+10
  +1.00735785953177261353e+10
  +1.00869565217391300201e+10
  +1.01003344481605358124e+10
  +1.01137123745819396973e+10
  +1.01270903010033454895e+10
  +1.01404682274247493744e+10
  +1.01538461538461532593e+10
  +1.01672240802675590515e+10
  +1.01806020066889629364e+10
  +1.01939799331103668213e+10
  +1.02073578595317726135e+10
  +1.02207357859531784058e+10
  +1.02341137123745822906e+10
  +1.02474916387959861755e+10
  +1.02608695652173919678e+10
  +1.02742474916387958527e+10
  +1.02876254180601997375e+10
  +1.03010033444816055298e+10
  +1.03143812709030094147e+10
  +1.03277591973244152069e+10
  +1.03411371237458190918e+10
  +1.03545150501672248840e+10
  +1.03678929765886287689e+10
  +1.03812709030100326538e+10
  +1.03946488294314384460e+10
  +1.04080267558528423309e+10
  +1.04214046822742481232e+10
  +1.04347826086956520081e+10
  +1.04481605351170578003e+10
  +1.04615384615384616852e+10
  +1.04749163879598655701e+10
  +1.04882943143812713623e+10
  +1.05016722408026752472e+10
  +1.05150501672240791321e+10
  +1.05284280936454849243e+10
  +1.05418060200668907166e+10
  +1.05551839464882946014e+10
  +1.05685618729096984863e+10
  +1.05819397993311042786e+10
  +1.05953177257525081635e+10
  +1.06086956521739120483e+10
  +1.06220735785953178406e+10
  +1.06354515050167217255e+10
  +1.06488294314381275177e+10
  +1.06622073578595314026e+10
  +1.06755852842809371948e+10
  +1.06889632107023410797e+10
  +1.07023411371237449646e+10
  +1.07157190635451507568e+10
  +1.07290969899665546417e+10
  +1.07424749163879604340e+10
  +1.07558528428093643188e+10
  +1.07692307692307701111e+10
  +1.07826086956521739960e+10
  +1.07959866220735778809e+10
  +1.08093645484949836731e+10
  +1.08227424749163875580e+10
  +1.08361204013377914429e+10
  +1.08494983277591972351e+10
  +1.08628762541806030273e+10
  +1.08762541806020069122e+10
  +1.08896321070234107971e+10
  +1.09030100334448165894e+10
  +1.09163879598662204742e+10
  +1.09297658862876243591e+10
  +1.09431438127090301514e+10
  +1.09565217391304340363e+10
  +1.09698996655518398285e+10
  +1.09832775919732437134e+10
  +1.09966555183946495056e+10
  +1.10100334448160533905e+10
  +1.10234113712374572754e+10
  +1.10367892976588630676e+10
  +1.10501672240802669525e+10
  +1.10635451505016727448e+10
  +1.10769230769230766296e+10
  +1.10903010033444824219e+10
  +1.11036789297658863068e+10
  +1.11170568561872901917e+10
  +1.11304347826086959839e+10
  +1.11438127090300998688e+10
  +1.11571906354515056610e+10
  +1.11705685618729095459e+10
  +1.11839464882943153381e+10
  +1.11973244147157192230e+10
  +1.12107023411371231079e+10
  +1.12240802675585289001e+10
  +1.12374581939799327850e+10
  +1.12508361204013366699e+10
  +1.12642140468227424622e+10
  +1.12775919732441482544e+10
  +1.12909698996655521393e+10
  +1.13043478260869560242e+10
  +1.13177257525083618164e+10
  +1.13311036789297657013e+10
  +1.13444816053511695862e+10
  +1.13578595317725753784e+10
  +1.13712374581939792633e+10
  +1.13846153846153850555e+10
  +1.13979933110367889404e+10
  +1.14113712374581947327e+10
  +1.14247491638795986176e+10
  +1.14381270903010025024e+10
  +1.14515050167224082947e+10
  +1.14648829431438121796e+10
  +1.14782608695652179718e+10
  +1.14916387959866218567e+10
  +1.15050167224080276489e+10
  +1.15183946488294315338e+10
  +1.15317725752508354187e+10
  +1.15451505016722412109e+10
  +1.15585284280936450958e+10
  +1.15719063545150489807e+10
  +1.15852842809364547729e+10
  +1.15986622073578605652e+10
  +1.16120401337792644501e+10
  +1.16254180602006683350e+10
  +1.16387959866220741272e+10
  +1.16521739130434780121e+10
  +1.16655518394648818970e+10
  +1.16789297658862876892e+10
  +1.16923076923076915741e+10
  +1.17056856187290973663e+10
  +1.17190635451505012512e+10
  +1.17324414715719070435e+10
  +1.17458193979933109283e+10
  +1.17591973244147148132e+10
  +1.17725752508361206055e+10
  +1.17859531772575244904e+10
  +1.17993311036789302826e+10
  +1.18127090301003341675e+10
  +1.18260869565217399597e+10
  +1.18394648829431438446e+10
  +1.18528428093645477295e+10
  +1.18662207357859535217e+10
  +1.18795986622073574066e+10
  +1.18929765886287631989e+10
  +1.19063545150501670837e+10
  +1.19197324414715728760e+10
  +1.19331103678929767609e+10
  +1.19464882943143806458e+10
  +1.19598662207357864380e+10
  +1.19732441471571903229e+10
  +1.19866220735785942078e+10
  +1.20000000000000000000e+10
</indep>
<dep S11_dB frequency>
  -1.29248798417543131478e+00
  -1.15843648149957245685e+00
  -1.04251103701482894515e+00
  -9.41995333998156270106e-01
  -8.54606542577302397135e-01
  -7.78425782092647233767e-01
  -7.11839010411983386106e-01
  -6.53487143276116788648e-01
  -6.02224198665835430688e-01
  -5.57082321407341596320e-01
  -5.17242643363952758762e-01
  -4.82011053080013240901e-01
  -4.50798071016838830527e-01
  -4.23102143531247865127e-01
  -3.98495775585617828529e-01
  -3.76614016700554055106e-01
  -3.57144896471950912265e-01
  -3.39821475687504981344e-01
  -3.24415237831034375393e-01
  -3.10730594908714019553e-01
  -2.98600322444656729459e-01
  -2.87881772481103526129e-01
  -2.78453741661131459750e-01
  -2.70213895014733473943e-01
  -2.63076665823547384271e-01
  -2.56971568697578534035e-01
  -2.51841877453947760035e-01
  -2.47643632162958121645e-01
  -2.44344951393428599928e-01
  -2.41925636801835375334e-01
  -2.40377068335741156391e-01
  -2.39702400085500838545e-01
  -2.39917079944549666015e-01
  -2.41049731626760466163e-01
  -2.43143456395997770159e-01
  -2.46257635637930794026e-01
  -2.50470346268297339165e-01
  -2.55881541897440889510e-01
  -2.62617207880351144489e-01
  -2.70834773970576536684e-01
  -2.80730173170335550736e-01
  -2.92547082711558048551e-01
  -3.06589092672917451488e-01
  -3.23235849537933717102e-01
  -3.42964662194050307065e-01
  -3.66379708485849164834e-01
  -3.94251955468483072931e-01
  -4.27574389137459709431e-01
  -4.67639438593159872948e-01
  -5.16149071186647434573e-01
  -5.75373765345044474451e-01
  -6.48385870445071565982e-01
  -7.39408239336131867248e-01
  -8.54344904889559053629e-01
  -1.00160496668338927506e+00
  -1.19340843031277943354e+00
  -1.44790095758264625303e+00
  -1.79265635557252700494e+00
  -2.27062022189011036843e+00
  -2.95050225335534088700e+00
  -3.94582223555427979989e+00
  -5.45326203809495346775e+00
  -7.84689028473178584733e+00
  -1.20143801323407970472e+01
  -2.18450477928125863514e+01
  -2.02280506063556622109e+01
  -1.18711403581386072403e+01
  -8.19445184047103936109e+00
  -6.07210198009362933647e+00
  -4.72311953965140318701e+00
  -3.81999732024874738556e+00
  -3.19473885614273633848e+00
  -2.75226501394486833263e+00
  -2.43567676678481781494e+00
  -2.20976282421027869773e+00
  -2.05240721556160599093e+00
  -1.94988949681309642337e+00
  -1.89429090600164284908e+00
  -1.88215627011303099358e+00
  -1.91402361827378775239e+00
  -1.99471436621042785831e+00
  -2.13452018288910183585e+00
  -2.35174758830790375796e+00
  -2.67767224234892120549e+00
  -3.16622239628412582846e+00
  -3.91376671130168096724e+00
  -5.10289147079316762756e+00
  -7.11416394832933196568e+00
  -1.09102885042815227479e+01
  -2.06653246652904414304e+01
  -1.68601763974205844931e+01
  -9.11917537178480586135e+00
  -5.67200394098459170777e+00
  -3.80131949079486330945e+00
  -2.71126524076918684614e+00
  -2.04957102611692087990e+00
  -1.63967816216113693173e+00
  -1.38991939094858185655e+00
  -1.25501813963055286472e+00
  -1.22136383927981162500e+00
  -1.31075715480151200332e+00
  -1.62121337853596969580e+00
  -2.52666958414946174472e+00
  -6.01371460864857709794e+00
  -1.08731228513613569220e+01
  -2.27062556212420529889e+00
  -7.75358703326312959092e-01
  -3.79854938232939365328e-01
  -2.34658729199333476734e-01
  -1.68703824493006387941e-01
  -1.34010711866997450636e-01
  -1.13694662184305864128e-01
  -1.00789512688918628247e-01
  -9.20628234417600055384e-02
  -8.58716328278742585534e-02
  -8.13173050134473607287e-02
  -7.78775030458714323522e-02
  -7.52325899168128503502e-02
  -7.31781646662510443235e-02
  -7.15784797088606650206e-02
  -7.03404202773268705240e-02
  -6.93983539505656360502e-02
  -6.87049817279882096832e-02
  -6.82256327559383063397e-02
  -6.79346048081832520893e-02
  -6.78127594892093676915e-02
  -6.78459105178846333395e-02
  -6.80237282915204383160e-02
  -6.83389909134051176665e-02
  -6.87870756569237684630e-02
  -6.93656240605104584818e-02
  -7.00743388266806960241e-02
  -7.09148873614705854695e-02
  -7.18908986879267658532e-02
  -7.30080498792322063473e-02
  -7.42742467371892561845e-02
  -7.56999126523020676727e-02
  -7.72984110717098715782e-02
  -7.90866430601215308904e-02
  -8.10858857032881186200e-02
  -8.33229757954892374938e-02
  -8.58320075289621398085e-02
  -8.86568234682397482427e-02
  -9.18547745826295003457e-02
  -9.55025857798002808519e-02
  -9.97058478869489728247e-02
  -1.04615002854309246949e-01
  -1.10453438165347847533e-01
  -1.17569164150743685204e-01
  -1.26534633119695066883e-01
  -1.38350109088584555250e-01
  -1.54883416903650206198e-01
  -1.79887979845388151778e-01
  -2.21557079695807013220e-01
  -2.99585804652902243372e-01
  -4.67144743244303273233e-01
  -8.89427356342086361529e-01
  -2.16370977871612613086e+00
  -6.65773188308721231010e+00
  -2.23716344624351357595e+01
  -9.07693303493185688069e+00
  -6.00609998745522410957e+00
  -5.03582028322873753723e+00
  -4.83588570603123901748e+00
  -5.06096171232842806376e+00
  -5.61153429367637990310e+00
  -6.47760584535800898465e+00
  -7.69621074447488151549e+00
  -9.34503322703896799339e+00
  -1.15629436103627387666e+01
  -1.46263919911187123546e+01
  -1.92361407413168663538e+01
  -2.83597190467431623517e+01
  -3.07973741908193474615e+01
  -2.14450127491231228305e+01
  -1.75242398358317821305e+01
  -1.52185987078210960277e+01
  -1.37029286448292015876e+01
  -1.26584192580213112933e+01
  -1.19279622561783149592e+01
  -1.14230496474921032757e+01
  -1.10896556896158102745e+01
  -1.08932214965761335890e+01
  -1.08111976913600411621e+01
  -1.08290343628769942796e+01
  -1.09379314430019896065e+01
  -1.11335873214257556896e+01
  -1.14155859224758238213e+01
  -1.17872649526207222692e+01
  -1.22560358628292505045e+01
  -1.28342428188450181636e+01
  -1.35408090956420892326e+01
  -1.44042160343490976970e+01
  -1.54680074978578687706e+01
  -1.68016239167042122915e+01
  -1.85239861100781730840e+01
  -2.08631919232172258205e+01
  -2.43486161230304851699e+01
  -3.07885869731652306314e+01
  -4.34356482689351679483e+01
  -2.77552064048167181909e+01
  -2.21586310223330720248e+01
  -1.86684628476233456240e+01
  -1.61151741637353538295e+01
  -1.41004900181898467082e+01
  -1.24408575002316403868e+01
  -1.10366017956586510707e+01
  -9.82753677025421978897e+00
  -8.77441716413662398111e+00
  -7.85004886720367345276e+00
  -7.03459562422167827833e+00
  -6.31292221900947136959e+00
  -5.67301368947130679743e+00
  -5.10500196500226621765e+00
  -4.60055285871635444295e+00
  -4.15247423481430821823e+00
  -3.75446252810052438775e+00
  -3.40093626076065014274e+00
  -3.08692390656741855182e+00
  -2.80798517685843807001e+00
  -2.56015242815649068930e+00
  -2.33988393704275443596e+00
  -2.14402411819843141672e+00
  -1.96976791542491391773e+00
  -1.81462793806987177092e+00
  -1.67640370697878671180e+00
  -1.55315280338825756345e+00
  -1.44316391594468518278e+00
  -1.34493184886565897429e+00
  -1.25713455043059774141e+00
  -1.17861218478762341810e+00
  -1.10834822464715343493e+00
  -1.04545250019209534642e+00
  -9.89146106057144369750e-01
  -9.38748045102483108515e-01
  -8.93663474372575206139e-01
  -8.53373413550589376975e-01
  -8.17425777571755718398e-01
  -7.85427601100120442723e-01
  -7.57038331816572096500e-01
  -7.31964080734215372104e-01
  -7.09952730183060598534e-01
  -6.90789813093545257416e-01
  -6.74295090392941331991e-01
  -6.60319766540194086346e-01
  -6.48744296444657142509e-01
  -6.39476750363109469610e-01
  -6.32451717086712328353e-01
  -6.27629740173597405750e-01
  -6.24997297642483795599e-01
  -6.24567353060574870227e-01
  -6.26380526169869167319e-01
  -6.30506955187445483624e-01
  -6.37048952112708288809e-01
  -6.46144588657548091248e-01
  -6.57972396250941504725e-01
  -6.72757420845445874846e-01
  -6.90778957447865105124e-01
  -7.12380389002744141003e-01
  -7.37981645820757536924e-01
  -7.68095062706719455825e-01
  -8.03345578262542159287e-01
  -8.44496572033616610398e-01
  -8.92483073184250352838e-01
  -9.48454679932207889159e-01
  -1.01383136609050272803e+00
  -1.09037651513026578876e+00
  -1.18029315073149221327e+00
  -1.28635162325736596145e+00
  -1.41206027179247373127e+00
  -1.56189521048307478068e+00
  -1.74161204312477968514e+00
  -1.95867217496257484122e+00
  -2.22283098586150762443e+00
  -2.54695800296403085383e+00
  -2.94819703231689889122e+00
  -3.44964244739965897324e+00
  -4.08284449339779609289e+00
  -4.89176144376999388896e+00
  -5.93952964770518221371e+00
  -7.32147821481479788019e+00
  -9.19415492237361320349e+00
  -1.18536377266471415481e+01
  -1.60156093738516958069e+01
  -2.45954073039974403514e+01
  -2.70728013546628041297e+01
  -1.71778359290717261842e+01
  -1.28826471751375102315e+01
  -1.02548200310783421685e+01
  -8.45062355536628295738e+00
  -7.14004557699835906703e+00
  -6.15637171849410336222e+00
  -5.40253599831795838782e+00
  -4.81695432186911265404e+00
  -4.35838319240222293871e+00
  -3.99822973170480766569e+00
  -3.71624330700365712588e+00
  -3.49792873057354780642e+00
  -3.33292035933036911999e+00
  -3.21393465462813887612e+00
</dep>
<dep S21_dB frequency>
  -6.22352953637900352390e+00
  -6.65395459982457992965e+00
  -7.07558367721310954579e+00
  -7.48717006112876415358e+00
  -7.88770583722547602434e+00
  -8.27638269502188528293e+00
  -8.65255727422799836290e+00
  -9.01572113613760883766e+00
  -9.36547512373264190444e+00
  -9.70150770295497366646e+00
  -1.00235768070716275702e+01
  -1.03314946972184866780e+01
  -1.06251153783698839561e+01
  -1.09043241536854580431e+01
  -1.11690289505257602798e+01
  -1.14191531019638610189e+01
  -1.16546293148227597669e+01
  -1.18753945974563901444e+01
  -1.20813859570890524964e+01
  -1.22725367075983129439e+01
  -1.24487732545597964418e+01
  -1.26100122457091003980e+01
  -1.27561579922927563757e+01
  -1.28871000806230000535e+01
  -1.30027111040219693905e+01
  -1.31028444536612358462e+01
  -1.31873321129320295597e+01
  -1.32559824042079661410e+01
  -1.33085776394132686562e+01
  -1.33448716268594189671e+01
  -1.33645869864897051116e+01
  -1.33674122240704722486e+01
  -1.33529985120533574161e+01
  -1.33209561208741522620e+01
  -1.32708504394149713335e+01
  -1.32021975173668977277e+01
  -1.31144590555000775112e+01
  -1.30070367627795207000e+01
  -1.28792659925596648662e+01
  -1.27304085649826497217e+01
  -1.25596446812970903295e+01
  -1.23660638416425605612e+01
  -1.21486546968421720294e+01
  -1.19062938067659391805e+01
  -1.16377333592875302770e+01
  -1.13415880520894809536e+01
  -1.10163216002860604448e+01
  -1.06602337828031306088e+01
  -1.02714497093327068455e+01
  -9.84791429763015635501e+00
  -9.38739717351660907241e+00
  -8.88751698535933343237e+00
  -8.34580055671781551041e+00
  -7.75980323495340318374e+00
  -7.12733526977508979883e+00
  -6.44686977410075812145e+00
  -5.71825704692751202174e+00
  -4.94394272030210846225e+00
  -4.13097444521875356571e+00
  -3.29412159648671210022e+00
  -2.46021413237333153035e+00
  -1.67283150006382475006e+00
  -9.94088756121509264929e-01
