<Qucs Dataset 0.0.20>
<indep frequency 150>
  +8.00000000000000000000e+09
  +8.02684563758389282227e+09
  +8.05369127516778564453e+09
  +8.08053691275167751312e+09
  +8.10738255033557033539e+09
  +8.13422818791946315765e+09
  +8.16107382550335597992e+09
  +8.18791946308724784851e+09
  +8.21476510067114067078e+09
  +8.24161073825503349304e+09
  +8.26845637583892631531e+09
  +8.29530201342281913757e+09
  +8.32214765100671100616e+09
  +8.34899328859060382843e+09
  +8.37583892617449665070e+09
  +8.40268456375838947296e+09
  +8.42953020134228229523e+09
  +8.45637583892617416382e+09
  +8.48322147651006698608e+09
  +8.51006711409395980835e+09
  +8.53691275167785263062e+09
  +8.56375838926174545288e+09
  +8.59060402684563827515e+09
  +8.61744966442953109741e+09
  +8.64429530201342201233e+09
  +8.67114093959731483459e+09
  +8.69798657718120765686e+09
  +8.72483221476510047913e+09
  +8.75167785234899330139e+09
  +8.77852348993288612366e+09
  +8.80536912751677894592e+09
  +8.83221476510067176819e+09
  +8.85906040268456459045e+09
  +8.88590604026845550537e+09
  +8.91275167785234832764e+09
  +8.93959731543624114990e+09
  +8.96644295302013397217e+09
  +8.99328859060402679443e+09
  +9.02013422818791961670e+09
  +9.04697986577181243896e+09
  +9.07382550335570526123e+09
  +9.10067114093959808350e+09
  +9.12751677852349090576e+09
  +9.15436241610738182068e+09
  +9.18120805369127464294e+09
  +9.20805369127516746521e+09
  +9.23489932885906028748e+09
  +9.26174496644295310974e+09
  +9.28859060402684593201e+09
  +9.31543624161073875427e+09
  +9.34228187919463157654e+09
  +9.36912751677852249146e+09
  +9.39597315436241531372e+09
  +9.42281879194630813599e+09
  +9.44966442953020095825e+09
  +9.47651006711409378052e+09
  +9.50335570469798660278e+09
  +9.53020134228187942505e+09
  +9.55704697986577224731e+09
  +9.58389261744966506958e+09
  +9.61073825503355789185e+09
  +9.63758389261745071411e+09
  +9.66442953020134162903e+09
  +9.69127516778523445129e+09
  +9.71812080536912727356e+09
  +9.74496644295302009583e+09
  +9.77181208053691291809e+09
  +9.79865771812080574036e+09
  +9.82550335570469856262e+09
  +9.85234899328859138489e+09
  +9.87919463087248229980e+09
  +9.90604026845637512207e+09
  +9.93288590604026794434e+09
  +9.95973154362416076660e+09
  +9.98657718120805358887e+09
  +1.00134228187919464111e+10
  +1.00402684563758392334e+10
  +1.00671140939597320557e+10
  +1.00939597315436248779e+10
  +1.01208053691275177002e+10
  +1.01476510067114105225e+10
  +1.01744966442953014374e+10
  +1.02013422818791942596e+10
  +1.02281879194630870819e+10
  +1.02550335570469799042e+10
  +1.02818791946308727264e+10
  +1.03087248322147655487e+10
  +1.03355704697986583710e+10
  +1.03624161073825492859e+10
  +1.03892617449664421082e+10
  +1.04161073825503349304e+10
  +1.04429530201342277527e+10
  +1.04697986577181205750e+10
  +1.04966442953020133972e+10
  +1.05234899328859062195e+10
  +1.05503355704697990417e+10
  +1.05771812080536918640e+10
  +1.06040268456375846863e+10
  +1.06308724832214775085e+10
  +1.06577181208053684235e+10
  +1.06845637583892612457e+10
  +1.07114093959731540680e+10
  +1.07382550335570468903e+10
  +1.07651006711409397125e+10
  +1.07919463087248325348e+10
  +1.08187919463087253571e+10
  +1.08456375838926162720e+10
  +1.08724832214765090942e+10
  +1.08993288590604019165e+10
  +1.09261744966442947388e+10
  +1.09530201342281875610e+10
  +1.09798657718120803833e+10
  +1.10067114093959732056e+10
  +1.10335570469798660278e+10
  +1.10604026845637588501e+10
  +1.10872483221476516724e+10
  +1.11140939597315444946e+10
  +1.11409395973154373169e+10
  +1.11677852348993282318e+10
  +1.11946308724832210541e+10
  +1.12214765100671138763e+10
  +1.12483221476510066986e+10
  +1.12751677852348995209e+10
  +1.13020134228187923431e+10
  +1.13288590604026851654e+10
  +1.13557046979865760803e+10
  +1.13825503355704689026e+10
  +1.14093959731543617249e+10
  +1.14362416107382545471e+10
  +1.14630872483221473694e+10
  +1.14899328859060401917e+10
  +1.15167785234899330139e+10
  +1.15436241610738258362e+10
  +1.15704697986577186584e+10
  +1.15973154362416114807e+10
  +1.16241610738255043030e+10
  +1.16510067114093971252e+10
  +1.16778523489932880402e+10
  +1.17046979865771808624e+10
  +1.17315436241610736847e+10
  +1.17583892617449665070e+10
  +1.17852348993288593292e+10
  +1.18120805369127521515e+10
  +1.18389261744966449738e+10
  +1.18657718120805358887e+10
  +1.18926174496644287109e+10
  +1.19194630872483215332e+10
  +1.19463087248322143555e+10
  +1.19731543624161071777e+10
  +1.20000000000000000000e+10
</indep>
<dep dB_S11 frequency>
  -7.99099372619129155737e+00
  -8.07578192773316771991e+00
  -8.16241858737370939991e+00
  -8.25095233090157087474e+00
  -8.34143368256098405311e+00
  -8.43391516813088770732e+00
  -8.52845142546300571951e+00
  -8.62509932313953342486e+00
  -8.72391808798025714111e+00
  -8.82496944220583756646e+00
  -8.92831775115104520069e+00
  -9.03403018251848521913e+00
  -9.14217687827362368580e+00
  -9.25283114040506049491e+00
  -9.36606963191426800108e+00
  -9.48197259455674412720e+00
  -9.60062408503682895855e+00
  -9.72211223156176274074e+00
  -9.84652951289390721001e+00
  -9.97397306230506330849e+00
  -1.01045449991411011581e+01
  -1.02383527910533373984e+01
  -1.03755096503540560349e+01
  -1.05161349684153400119e+01
  -1.06603547925639414728e+01
  -1.08083023505437729739e+01
  -1.09601186283355200857e+01
  -1.11159530079604316199e+01
  -1.12759639728739138320e+01
  -1.14403198897011080248e+01
  -1.16091998764165822422e+01
  -1.17827947686617644507e+01
  -1.19613081977800383982e+01
  -1.21449577963902406452e+01
  -1.23339765499943094795e+01
  -1.25286143163184267024e+01
  -1.27291395379416591993e+01
  -1.29358411784237326003e+01
  -1.31490309177970452481e+01
  -1.33690456501847272364e+01
  -1.35962503347611693982e+01
  -1.38310412616925066942e+01
  -1.40738498076129943115e+01
  -1.43251467712994084991e+01
  -1.45854474004187188996e+01
  -1.48553172457546622809e+01
  -1.51353790118006621412e+01
  -1.54263206142371380736e+01
  -1.57289047086028865863e+01
  -1.60439800245657124833e+01
  -1.63724949323787960509e+01
  -1.67155137905271722332e+01
  -1.70742367878573055862e+01
  -1.74500242164791252719e+01
  -1.78444264181414311565e+01
  -1.82592210734381552584e+01
  -1.86964601059491464241e+01
  -1.91585293384712649356e+01
  -1.96482253017135377604e+01
  -2.01688554760287033218e+01
  -2.07243711051271191081e+01
  -2.13195461698309003395e+01
  -2.19602232206672880466e+01
  -2.26536584776102145611e+01
  -2.34090185560841774759e+01
  -2.42381165306985977281e+01
  -2.51565406201342440795e+01
  -2.61854571435136165292e+01
  -2.73546375265538230792e+01
  -2.87078655717286892468e+01
  -3.03133976602690466962e+01
  -3.22864738256471568434e+01
  -3.48456805968536116325e+01
  -3.84917705259093310133e+01
  -4.48983105736775769401e+01
  -6.54605941505281663240e+01
  -4.34421423339210761583e+01
  -3.77658025999058608591e+01
  -3.43629938021271499338e+01
  -3.19257109877287490463e+01
  -3.00260524677902687074e+01
  -2.84696923129194914281e+01
  -2.71517836312288878275e+01
  -2.60092654728769048234e+01
  -2.50012400000812391454e+01
  -2.40996672104234832545e+01
  -2.32844825276546103510e+01
  -2.25408321909239290903e+01
  -2.18574115749440558432e+01
  -2.12254172290091247532e+01
  -2.06378592451081210868e+01
  -2.00890948006321146124e+01
  -1.95745026436721047958e+01
  -1.90902503168079924478e+01
  -1.86331241165057974740e+01
  -1.82004025325224816356e+01
  -1.77897604726430635935e+01
  -1.73991957023039880426e+01
  -1.70269715892841944083e+01
  -1.66715720002546241574e+01
  -1.63316653800977853450e+01
  -1.60060758582498756653e+01
  -1.56937597945828883894e+01
  -1.53937865806115112832e+01
  -1.51053228020837337908e+01
  -1.48276190807186978304e+01
  -1.45599990691291623079e+01
  -1.43018501896227245851e+01
  -1.40526157955685331302e+01
  -1.38117885010312679839e+01
  -1.35789044758764561038e+01
  -1.33535385434673443683e+01
  -1.31352999492550601701e+01
  -1.29238286931040242678e+01
  -1.27187923376444977919e+01
  -1.25198832204603238694e+01
  -1.23268160103766319935e+01
  -1.21393255581709258450e+01
  -1.19571650001996729884e+01
  -1.17801040801006866587e+01
  -1.16079276592032307747e+01
  -1.14404343907883756515e+01
  -1.12774355370786061314e+01
  -1.11187539109425443939e+01
  -1.09642229268973672163e+01
  -1.08136857481676624815e+01
  -1.06669945183927357135e+01
  -1.05240096681217423225e+01
  -1.03845992875499089081e+01
  -1.02486385580649645988e+01
  -1.01160092361260609550e+01
  -9.98659918381395605991e+00
  -9.86030194109082280818e+00
  -9.73701633541218036783e+00
  -9.61664612485365921657e+00
  -9.49909967136639110663e+00
  -9.38428964116668140605e+00
  -9.27213272960528556155e+00
  -9.16254940815970719825e+00
  -9.05546369145167417969e+00
  -8.95080292242023034532e+00
  -8.84849757398028202715e+00
  -8.74848106567212902007e+00
  -8.65068959396299419495e+00
  -8.55506197499801324113e+00
  -8.46153949871954225159e+00
  -8.37006579338114065081e+00
  -8.28058669957799864392e+00
  -8.19305015300037808856e+00
  -8.10740607519278100312e+00
</dep>
<dep dB_S21 frequency>
  -7.52699434540546441497e-01
  -7.36877855800972092482e-01
  -7.21084872996164083503e-01
  -7.05325635799961769834e-01
  -6.89605339191222688200e-01
  -6.73929221804578926225e-01
  -6.58302564189033656561e-01
  -6.42730686973096321246e-01
  -6.27218948935332143435e-01
  -6.11772744979216742678e-01
  -5.96397504011485724007e-01
  -5.81098686723123369902e-01
  -5.65881783272527139061e-01
  -5.50752310870343930738e-01
  -5.35715811265801367114e-01
  -5.20777848134485243925e-01
  -5.05944004367724686766e-01
  -4.91219879263934899871e-01
  -4.76611085622570151976e-01
  -4.62123246741432014417e-01
  -4.47761993318454454283e-01
  -4.33532960259191135766e-01
  -4.19441783391653000290e-01
  -4.05494096090190991877e-01
  -3.91695525810597633409e-01
  -3.78051690538704299183e-01
  -3.64568195155119845197e-01
  -3.51250627718986463410e-01
  -3.38104555673993167897e-01
  -3.25135521979997621500e-01
  -3.12349041174158070788e-01
  -2.99750595365473382348e-01
  -2.87345630167151644407e-01
  -2.75139550571404489787e-01
  -2.63137716771507601532e-01
  -2.51345439936386194635e-01
  -2.39767977943099785954e-01
  -2.28410531072988060020e-01
  -2.17278237677429986174e-01
  -2.06376169819445759446e-01
  -1.95709328897587103713e-01
  -1.85282641258870922618e-01
  -1.75100953807563630704e-01
  -1.65169029617015850064e-01
  -1.55491543551771721487e-01
  -1.46073077907478060533e-01
  -1.36918118076115896686e-01
  -1.28031048244388795387e-01
  -1.19416147133042258033e-01
  -1.11077583785092276480e-01
  -1.03019413410941909626e-01
  -9.52455732984496677984e-02
  -8.77598787959708859230e-02
  -8.05660193765049825743e-02
  -7.36675547908424710464e-02
  -6.70679113178077185298e-02
  -6.07703781193413561379e-02
  -5.47781037083010305389e-02
  -4.90940925364793875896e-02
  -4.37212017103765712700e-02
  -3.86621378419586408937e-02
  -3.39194540413828848902e-02
  -2.94955470585632970049e-02
  -2.53926545800067168801e-02
  -2.16128526871942235055e-02
  -1.81580534823259399924e-02
  -1.50300028870812528436e-02
  -1.22302786194416410193e-02
  -9.76028835348657919369e-03
  -7.62126806642985862861e-03
  -5.81428057698564482170e-03
  -4.34021427842225769600e-03
  -3.19978206951759738125e-03
  -2.39352048587817374178e-03
  -1.92178903382596365061e-03
  -1.78476972841641687989e-03
  -1.98246683675359827020e-03
  -2.51470682719973689240e-03
  -3.38113852465611684078e-03
  -4.58123347144829412558e-03
  -6.11428649307383872968e-03
  -7.97941646729327137832e-03
  -1.01755672948077302564e-02
  -1.27015090691188249628e-02
  -1.55558394427702771645e-02
  -1.87369851866659997697e-02
  -2.22432039387466043423e-02
  -2.60725861378553400161e-02
  -3.02230571381960771982e-02
  -3.46923794994071360565e-02
  -3.94781554468986856099e-02
  -4.45778294967241681124e-02
  -4.99886912389244444932e-02
  -5.57078782730307461857e-02
  -6.17323792889963932073e-02
  -6.80590372867373588628e-02
  -7.46845529270632052521e-02
  -8.16054880067081656048e-02
  -8.88182690498565685644e-02
  -9.63191910085760411020e-02
  -1.04104421064219548887e-01
  -1.12170002521997241862e-01
  -1.20511858790633197280e-01
  -1.29125797439166162262e-01
  -1.38007514322728619405e-01
  -1.47152597769349469115e-01
  -1.56556532819702831638e-01
  -1.66214705511846388974e-01
  -1.76122407203064101910e-01
  -1.86274838921012264592e-01
  -1.96667115736480935251e-01
  -2.07294271150287090499e-01
  -2.18151261486846076432e-01
  -2.29232970287292253664e-01
  -2.40534212695112520342e-01
  -2.52049739827484686749e-01
  -2.63774243125771579166e-01
  -2.75702358678800996117e-01
  -2.87828671512856182346e-01
  -3.00147719842510429800e-01
  -3.12653999276760075077e-01
  -3.25341966975109975202e-01
  -3.38206045748602246448e-01
  -3.51240628101033791619e-01
  -3.64440080205877148245e-01
  -3.77798745814772962692e-01
  -3.91310950093619602796e-01
  -4.04971003382741612242e-01
  -4.18773204877752325270e-01
  -4.32711846228101548739e-01
  -4.46781215050581437254e-01
  -4.60975598355228333158e-01
  -4.75289285881540068956e-01
  -4.89716573342958372272e-01
  -5.04251765578016319935e-01
  -5.18889179606697337199e-01
  -5.33623147590844948418e-01
  -5.48448019697690081209e-01
  -5.63358166865786880173e-01
  -5.78347983472918603098e-01
  -5.93411889905623102237e-01
  -6.08544335030401173370e-01
  -6.23739798566638858901e-01
  -6.38992793361637945182e-01
  -6.54297867568210955724e-01
  -6.69649606725563950604e-01
  -6.85042635744213979088e-01
  -7.00471620796015104204e-01
  -7.15931271110303635297e-01
  -7.31416340677504495105e-01
</dep>
<dep S[1,1] frequency>
  -2.70500497497145275805e-01+j2.92656473894277291414e-01
  -2.65284722986812715462e-01+j2.92184487991785979411e-01
  -2.60058953299153239325e-01+j2.91617729421591809214e-01
  -2.54824935130561480712e-01+j2.90955343383693165737e-01
  -2.49584455880669936478e-01+j2.90196504369198415851e-01
  -2.44339343467004782573e-01+j2.89340417846015274250e-01
  -2.39091466074933506336e-01+j2.88386321969911429974e-01
  -2.33842731840445267055e-01+j2.87333489318763568576e-01
  -2.28595088463335149864e-01+j2.86181228647639285256e-01
  -2.23350522748432700482e-01+j2.84928886662181524159e-01
  -2.18111060072558204936e-01+j2.83575849807582935913e-01
  -2.12878763775000479086e-01+j2.82121546070268458539e-01
  -2.07655734469368663531e-01+j2.80565446789215022783e-01
  -2.02444109274800054799e-01+j2.78907068473667973940e-01
  -1.97246060964597375031e-01+j2.77145974623829227657e-01
  -1.92063797030523786269e-01+j2.75281777550924533493e-01
  -1.86899558661094006284e-01+j2.73314140192874199808e-01
  -1.81755619632389897600e-01+j2.71242777921635813687e-01
  -1.76634285110070121672e-01+j2.69067460338111241747e-01
  -1.71537890361442346698e-01+j2.66788013050361760836e-01
  -1.66468799376655318678e-01+j2.64404319430716128192e-01
  -1.61429403398281795523e-01+j2.61916322347219676647e-01
  -1.56422119358787609089e-01+j2.59324025864732243818e-01
  -1.51449388225613962300e-01+j2.56627496910861230273e-01
  -1.46513673253860637891e-01+j2.53826866901807335353e-01
  -1.41617458146802738250e-01+j2.50922333323086776957e-01
  -1.36763245124767063299e-01+j2.47914161260023913069e-01
  -1.31953552903168319643e-01+j2.44802684872822362561e-01
  -1.27190914580798813960e-01+j2.41588308810970292528e-01
  -1.22477875439787692313e-01+j2.38271509561702177216e-01
  -1.17816990658937137404e-01+j2.34852836727204000722e-01
  -1.13210822942489700016e-01+j2.31332914225262725738e-01
  -1.08661940066687959239e-01+j2.27712441408061960768e-01
  -1.04172912346844614984e-01+j2.23992194093878743688e-01
  -9.97463100279592507214e-02+j2.20173025506484043579e-01
  -9.53847006022751214838e-02+j2.16255867117139150002e-01
  -9.10906460575065107799e-02+j2.12241729384186145202e-01
  -8.68667000598065536243e-02+j2.08131702385352029827e-01
  -8.27154050758936026932e-02+j2.03926956338051440509e-01
  -7.86392894390809671368e-02+j1.99628742003136766536e-01
  -7.46408643642947206009e-02+j1.95238390967757996508e-01
  -7.07226209174857678441e-02+j1.90757315803221388917e-01
  -6.68870269451463800303e-02+j1.86187010093972593605e-01
  -6.31365239699614999580e-02+j1.81529048334130138631e-01
  -5.94735240588953814611e-02+j1.76785085688269172355e-01
  -5.59004066703065877197e-02+j1.71956857613504404680e-01
  -5.24195154869216833893e-02+j1.67046179340239048239e-01
  -4.90331552417533414467e-02+j1.62054945209340439671e-01
  -4.57435885442522005562e-02+j1.56985127863872003795e-01
  -4.25530327141818986991e-02+j1.51838777293927307266e-01
  -3.94636566308748035214e-02+j1.46618019733537469085e-01
  -3.64775776056648001755e-02+j1.41325056409057014939e-01
  -3.35968582854151778805e-02+j1.35962162138901082598e-01
  -3.08235035951411467936e-02+j1.30531683784969571027e-01
  -2.81594577277787735947e-02+j1.25036038556565615165e-01
  -2.56066011891864300787e-02+j1.19477712168127178649e-01
  -2.31667479064399522981e-02+j1.13859256852551743444e-01
  -2.08416424074585396320e-02+j1.08183289232430160376e-01
  -1.86329570799047931906e-02+j1.02452488051971185579e-01
  -1.65422895172034553624e-02+j9.66695917729217951697e-02
  -1.45711599593711937928e-02+j9.08373960382682782422e-02
  -1.27210088361721061767e-02+j8.49587510080000996027e-02
  -1.09931944199000673767e-02+j7.90365585716999996535e-02
  -9.38899059483341499877e-03+j7.30737694431725232080e-02
  -7.90958475013764025774e-03+j6.70733801428136516831e-02
  -6.55607580266354041804e-03+j6.10384298738184255528e-02
  -5.32947235575309454653e-03+j5.49719972987740418402e-02
  -4.23069099978280131064e-03+j4.88771972235572879639e-02
  -3.26055475977646844546e-03+j4.27571771958548535464e-02
  -2.41979169497958182533e-03+j3.66151140259224974760e-02
  -1.70903365484298625301e-03+j3.04542102375740149356e-02
  -1.12881519537586785459e-03+j2.42776904576212683440e-02
  -6.79572659336188868336e-04+j1.80887977522776847994e-02
  -3.61643423207175013136e-04+j1.18907899192325534898e-02
  -1.75265313378842918675e-04+j5.68693574429478092280e-03
  -1.20576193409828197767e-04-j5.19488768333571703309e-04
  -1.97613723689786530005e-04-j6.72520418302635820951e-03
  -4.06315294264448340859e-04-j1.29269314276896953031e-02
  -7.46518131019434285495e-04-j1.91213955874676641566e-02
  -1.21795957485465347440e-03-j2.53053296879362822625e-02
  -1.82027753291780659134e-03-j3.14754784585832836363e-02
  -2.55301110040628831399e-03-j3.76286020674415772058e-02
  -3.41560135089830812019e-03-j4.37614798178886169056e-02
  -4.40739229263196249237e-03-j4.98709137987549747106e-02
  -5.52763198762558274207e-03-j5.59537324790965739929e-02
  -6.77547383002412035441e-03-j6.20067942392199394908e-02
  -8.14997797956045107182e-03-j6.80269908297884279280e-02
  -9.65011294555610105173e-03-j7.40112507511668377136e-02
  -1.12747573164310808252e-02-j7.99565425454483030832e-02
  -1.30227016292779381595e-02-j8.58598779939952760909e-02
  -1.48926503736558843438e-02-j9.17183152136833157453e-02
  -1.68832241233945017089e-02-j9.75289616454391022904e-02
  -1.89929617898655714314e-02-j1.03288976929102785385e-01
  -2.12203229898745016069e-02-j1.08995575659072946317e-01
  -2.35636905210495246898e-02-j1.14646030015646827049e-01
  -2.60213729373769651898e-02-j1.20237672267460141140e-01
  -2.85916072173169263926e-02-j1.25767897140884959972e-01
  -3.12725615167774306791e-02-j1.31234164052765667208e-01
  -3.40623379990771593673e-02-j1.36633999203336548023e-01
  -3.69589757339371244305e-02-j1.41964997526686370621e-01
  -3.99604536574763441470e-02-j1.47224824496632544779e-01
  -4.30646935851418249941e-02-j1.52411217786339120428e-01
  -4.62695632695285935521e-02-j1.57521988780550070697e-01
  -4.95728794950508339090e-02-j1.62555023939740361794e-01
  -5.29724112015152320820e-02-j1.67508286016010421449e-01
  -5.64658826287262882726e-02-j1.72379815120982382570e-01
  -6.00509764743833926448e-02-j1.77167729646419774836e-01
  -6.37253370576826294602e-02-j1.81870227038730264413e-01
  -6.74865734812054862690e-02-j1.86485584428919659583e-01
